 ****** HSPICE -- J-2014.09-SP2-2 64-BIT (Apr 17 2015) win64 ******             
  Copyright (C) 2014 Synopsys, Inc. All Rights Reserved.                        
  Unpublished-rights reserved under US copyright laws.
  This program is protected by law and is subject to the
  terms and conditions of the license agreement from Synopsys.
  Use of this program is your acceptance to be bound by the
  license agreement. HSPICE is the trademark of Synopsys, Inc.
  Input File: 6tsram.sp                                                         
  Command line options: -i 6tsram.sp -o 6tsram.lis
  lic:  
  lic: FLEXlm: v10.9.8 
  lic: USER:   DELL                 HOSTNAME: DESKTOP-7ITPLTQ 
  lic: HOSTID: "c03eba3298b7 18473d25e973 1a473d25e973 2a473d25e973" PID:      1
 9068 
  lic: Using FLEXlm license file: 
  lic: 27000@DESKTOP-7ITPLTQ 
  lic: Checkout 1 hspice 
  lic: License/Maintenance for hspice will expire on 30-dec-2030/2020.12 
  lic: 1(in_use)/99(total) FLOATING license(s) on SERVER 27000@DESKTOP-7ITPLTQ 
  lic:   
 Init: read install configuration file: C:\synopsys\Hspice_J-2014.09-SP2-2\meta.cfg
1****** HSPICE -- J-2014.09-SP2-2 64-BIT (Apr 17 2015) win64 ******             
 ******  
 * ternary sram cell using gnrfets

 ****** circuit name directory
 circuit number to circuit name directory
   number circuitname                     definition         multiplier
        0 main circuit
  **info** (6tsram.sp:20) DC voltage reset to initial transient source value              in source        0:vina                new dc=  0.0000D+00
  
      
  **warning** PIVOT option setting is simplified, pivot = 13 is obsolete,
              automatically switch to pivot = 1.
 *****************************************************************
 ******  option summary
 ******
 runlvl  = 3         bypass  = 2         
  Opening plot unit= 79
 file=6tsram.pa0

1****** HSPICE -- J-2014.09-SP2-2 64-BIT (Apr 17 2015) win64 ******             
 ******  
 * ternary sram cell using gnrfets

 ****** operating point information tnom=  25.000 temp=  25.000 ******
 ****** operating point status is all       simulation time is   0.000e+00
     node    =voltage       node    =voltage       node    =voltage

 + 0:a       = 0.000e+00  0:op      = 1.200e+00  0:z       = 1.200e+00


 **** voltage sources

 subckt                          
 element   0:vds       0:vina    
  volts     1.200e+00   0.000e+00
  current  -2.815e-08   0.000e+00
  power     3.378e-08   0.000e+00

     total voltage source power dissipation=  3.378e-08       watts


 ******  
 * ternary sram cell using gnrfets

 ****** transient analysis tnom=  25.000 temp=  25.000 ******
 avgpower= 4.3827e-05  from= 1.0000e-09     to= 9.0000e-08

a


 legend:

  a: v(a)
  b: v(out)
  c: v(op)

      time       v(a)
 (abc     )     0.000e+00     5.000e-01     1.000e-00     1.500e+00    2.000e+00
                      +             +             +             +             + 
  0.000e+00  0.00e+00-a------+------+------+------+-----2+------+------+------+-
  2.000e-10  0.00e+00 a      +      +      +      +     2+      +      +      + 
  4.000e-10  0.00e+00 a      +      +      +      +     2+      +      +      + 
  6.000e-10  0.00e+00 a      +      +      +      +     2+      +      +      + 
  8.000e-10  0.00e+00 a      +      +      +      +     2+      +      +      + 
  1.000e-09  0.00e+00 a      +      +      +      +     2+      +      +      + 
  1.200e-09  0.00e+00 a      +      +      +      +     2+      +      +      + 
  1.400e-09  0.00e+00 a      +      +      +      +     2+      +      +      + 
  1.600e-09  0.00e+00 a      +      +      +      +     2+      +      +      + 
  1.800e-09  0.00e+00 a      +      +      +      +     2+      +      +      + 
  2.000e-09  0.00e+00-a------+------+------+------+-----2+------+------+------+-
  2.200e-09  0.00e+00 a      +      +      +      +     2+      +      +      + 
  2.400e-09  0.00e+00 a      +      +      +      +     2+      +      +      + 
  2.600e-09  0.00e+00 a      +      +      +      +     2+      +      +      + 
  2.800e-09  0.00e+00 a      +      +      +      +     2+      +      +      + 
  3.000e-09  0.00e+00 a      +      +      +      +     2+      +      +      + 
  3.200e-09  0.00e+00 a      +      +      +      +     2+      +      +      + 
  3.400e-09  0.00e+00 a      +      +      +      +     2+      +      +      + 
  3.600e-09  0.00e+00 a      +      +      +      +     2+      +      +      + 
  3.800e-09  0.00e+00 a      +      +      +      +     2+      +      +      + 
  4.000e-09  0.00e+00-a------+------+------+------+-----2+------+------+------+-
  4.200e-09  0.00e+00 a      +      +      +      +     2+      +      +      + 
  4.400e-09  0.00e+00 a      +      +      +      +     2+      +      +      + 
  4.600e-09  0.00e+00 a      +      +      +      +     2+      +      +      + 
  4.800e-09  0.00e+00 a      +      +      +      +     2+      +      +      + 
  5.000e-09  0.00e+00 a      +      +      +      +     2+      +      +      + 
  5.200e-09  0.00e+00 a      +      +      +      +     2+      +      +      + 
  5.400e-09  0.00e+00 a      +      +      +      +     2+      +      +      + 
  5.600e-09  0.00e+00 a      +      +      +      +     2+      +      +      + 
  5.800e-09  0.00e+00 a      +      +      +      +     2+      +      +      + 
  6.000e-09  0.00e+00-a------+------+------+------+-----2+------+------+------+-
  6.200e-09  0.00e+00 a      +      +      +      +     2+      +      +      + 
  6.400e-09  0.00e+00 a      +      +      +      +     2+      +      +      + 
  6.600e-09  0.00e+00 a      +      +      +      +     2+      +      +      + 
  6.800e-09  0.00e+00 a      +      +      +      +     2+      +      +      + 
  7.000e-09  0.00e+00 a      +      +      +      +     2+      +      +      + 
  7.200e-09  0.00e+00 a      +      +      +      +     2+      +      +      + 
  7.400e-09  0.00e+00 a      +      +      +      +     2+      +      +      + 
  7.600e-09  0.00e+00 a      +      +      +      +     2+      +      +      + 
  7.800e-09  0.00e+00 a      +      +      +      +     2+      +      +      + 
  8.000e-09  0.00e+00-a------+------+------+------+-----2+------+------+------+-
  8.200e-09  0.00e+00 a      +      +      +      +     2+      +      +      + 
  8.400e-09  0.00e+00 a      +      +      +      +     2+      +      +      + 
  8.600e-09  0.00e+00 a      +      +      +      +     2+      +      +      + 
  8.800e-09  0.00e+00 a      +      +      +      +     2+      +      +      + 
  9.000e-09  0.00e+00 a      +      +      +      +     2+      +      +      + 
  9.200e-09  0.00e+00 a      +      +      +      +     2+      +      +      + 
  9.400e-09  0.00e+00 a      +      +      +      +     2+      +      +      + 
  9.600e-09  0.00e+00 a      +      +      +      +     2+      +      +      + 
  9.800e-09  0.00e+00 a      +      +      +      +     2+      +      +      + 
  1.000e-08  0.00e+00-a------+------+------+------+-----2+------+------+------+-
  1.020e-08  0.00e+00 a      +      +      +      +     2+      +      +      + 
  1.040e-08  0.00e+00 a      +      +      +      +     2+      +      +      + 
  1.060e-08  0.00e+00 a      +      +      +      +     2+      +      +      + 
  1.080e-08  0.00e+00 a      +      +      +      +     2+      +      +      + 
  1.100e-08  0.00e+00 a      +      +      +      +     2+      +      +      + 
  1.120e-08  0.00e+00 a      +      +      +      +     2+      +      +      + 
  1.140e-08  0.00e+00 a      +      +      +      +     2+      +      +      + 
  1.160e-08  0.00e+00 a      +      +      +      +     2+      +      +      + 
  1.180e-08  0.00e+00 a      +      +      +      +     2+      +      +      + 
  1.200e-08  0.00e+00-a------+------+------+------+-----2+------+------+------+-
  1.220e-08  0.00e+00 a      +      +      +      +     2+      +      +      + 
  1.240e-08  0.00e+00 a      +      +      +      +     2+      +      +      + 
  1.260e-08  0.00e+00 a      +      +      +      +     2+      +      +      + 
  1.280e-08  0.00e+00 a      +      +      +      +     2+      +      +      + 
  1.300e-08  0.00e+00 a      +      +      +      +     2+      +      +      + 
  1.320e-08  0.00e+00 a      +      +      +      +     2+      +      +      + 
  1.340e-08  0.00e+00 a      +      +      +      +     2+      +      +      + 
  1.360e-08  0.00e+00 a      +      +      +      +     2+      +      +      + 
  1.380e-08  0.00e+00 a      +      +      +      +     2+      +      +      + 
  1.400e-08  0.00e+00-a------+------+------+------+-----2+------+------+------+-
  1.420e-08  0.00e+00 a      +      +      +      +     2+      +      +      + 
  1.440e-08  0.00e+00 a      +      +      +      +     2+      +      +      + 
  1.460e-08  0.00e+00 a      +      +      +      +     2+      +      +      + 
  1.480e-08  0.00e+00 a      +      +      +      +     2+      +      +      + 
  1.500e-08  0.00e+00 a      +      +      +      +     2+      +      +      + 
  1.520e-08  0.00e+00 a      +      +      +      +     2+      +      +      + 
  1.540e-08  0.00e+00 a      +      +      +      +     2+      +      +      + 
  1.560e-08  0.00e+00 a      +      +      +      +     2+      +      +      + 
  1.580e-08  0.00e+00 a      +      +      +      +     2+      +      +      + 
  1.600e-08  0.00e+00-a------+------+------+------+-----2+------+------+------+-
  1.620e-08  0.00e+00 a      +      +      +      +     2+      +      +      + 
  1.640e-08  0.00e+00 a      +      +      +      +     2+      +      +      + 
  1.660e-08  0.00e+00 a      +      +      +      +     2+      +      +      + 
  1.680e-08  0.00e+00 a      +      +      +      +     2+      +      +      + 
  1.700e-08  0.00e+00 a      +      +      +      +     2+      +      +      + 
  1.720e-08  0.00e+00 a      +      +      +      +     2+      +      +      + 
  1.740e-08  0.00e+00 a      +      +      +      +     2+      +      +      + 
  1.760e-08  0.00e+00 a      +      +      +      +     2+      +      +      + 
  1.780e-08  0.00e+00 a      +      +      +      +     2+      +      +      + 
  1.800e-08  0.00e+00-a------+------+------+------+-----2+------+------+------+-
  1.820e-08  0.00e+00 a      +      +      +      +     2+      +      +      + 
  1.840e-08  0.00e+00 a      +      +      +      +     2+      +      +      + 
  1.860e-08  0.00e+00 a      +      +      +      +     2+      +      +      + 
  1.880e-08  0.00e+00 a      +      +      +      +     2+      +      +      + 
  1.900e-08  0.00e+00 a      +      +      +      +     2+      +      +      + 
  1.920e-08  0.00e+00 a      +      +      +      +     2+      +      +      + 
  1.940e-08  0.00e+00 a      +      +      +      +     2+      +      +      + 
  1.960e-08  0.00e+00 a      +      +      +      +     2+      +      +      + 
  1.980e-08  0.00e+00 a      +      +      +      +     2+      +      +      + 
  2.000e-08  0.00e+00-a------+------+------+------+-----2+------+------+------+-
  2.020e-08  0.00e+00 a      +      +      +      +     2+      +      +      + 
  2.040e-08  0.00e+00 a      +      +      +      +     2+      +      +      + 
  2.060e-08  0.00e+00 a      +      +      +      +     2+      +      +      + 
  2.080e-08  0.00e+00 a      +      +      +      +     2+      +      +      + 
  2.100e-08  0.00e+00 a      +      +      +      +     2+      +      +      + 
  2.120e-08  0.00e+00 a      +      +      +      +     2+      +      +      + 
  2.140e-08  0.00e+00 a      +      +      +      +     2+      +      +      + 
  2.160e-08  0.00e+00 a      +      +      +      +     2+      +      +      + 
  2.180e-08  0.00e+00 a      +      +      +      +     2+      +      +      + 
  2.200e-08  0.00e+00-a------+------+------+------+-----2+------+------+------+-
  2.220e-08  0.00e+00 a      +      +      +      +     2+      +      +      + 
  2.240e-08  0.00e+00 a      +      +      +      +     2+      +      +      + 
  2.260e-08  0.00e+00 a      +      +      +      +     2+      +      +      + 
  2.280e-08  0.00e+00 a      +      +      +      +     2+      +      +      + 
  2.300e-08  0.00e+00 a      +      +      +      +     2+      +      +      + 
  2.320e-08  0.00e+00 a      +      +      +      +     2+      +      +      + 
  2.340e-08  0.00e+00 a      +      +      +      +     2+      +      +      + 
  2.360e-08  0.00e+00 a      +      +      +      +     2+      +      +      + 
  2.380e-08  0.00e+00 a      +      +      +      +     2+      +      +      + 
  2.400e-08  0.00e+00-a------+------+------+------+-----2+------+------+------+-
  2.420e-08  0.00e+00 a      +      +      +      +     2+      +      +      + 
  2.440e-08  0.00e+00 a      +      +      +      +     2+      +      +      + 
  2.460e-08  0.00e+00 a      +      +      +      +     2+      +      +      + 
  2.480e-08  0.00e+00 a      +      +      +      +     2+      +      +      + 
  2.500e-08  0.00e+00 a      +      +      +      +     2+      +      +      + 
  2.520e-08  0.00e+00 a      +      +      +      +     2+      +      +      + 
  2.540e-08  0.00e+00 a      +      +      +      +     2+      +      +      + 
  2.560e-08  0.00e+00 a      +      +      +      +     2+      +      +      + 
  2.580e-08  0.00e+00 a      +      +      +      +     2+      +      +      + 
  2.600e-08  0.00e+00-a------+------+------+------+-----2+------+------+------+-
  2.620e-08  0.00e+00 a      +      +      +      +     2+      +      +      + 
  2.640e-08  0.00e+00 a      +      +      +      +     2+      +      +      + 
  2.660e-08  0.00e+00 a      +      +      +      +     2+      +      +      + 
  2.680e-08  0.00e+00 a      +      +      +      +     2+      +      +      + 
  2.700e-08  0.00e+00 a      +      +      +      +     2+      +      +      + 
  2.720e-08  0.00e+00 a      +      +      +      +     2+      +      +      + 
  2.740e-08  0.00e+00 a      +      +      +      +     2+      +      +      + 
  2.760e-08  0.00e+00 a      +      +      +      +     2+      +      +      + 
  2.780e-08  0.00e+00 a      +      +      +      +     2+      +      +      + 
  2.800e-08  0.00e+00-a------+------+------+------+-----2+------+------+------+-
  2.820e-08  0.00e+00 a      +      +      +      +     2+      +      +      + 
  2.840e-08  0.00e+00 a      +      +      +      +     2+      +      +      + 
  2.860e-08  0.00e+00 a      +      +      +      +     2+      +      +      + 
  2.880e-08  0.00e+00 a      +      +      +      +     2+      +      +      + 
  2.900e-08  0.00e+00 a      +      +      +      +     2+      +      +      + 
  2.920e-08  0.00e+00 a      +      +      +      +     2+      +      +      + 
  2.940e-08  0.00e+00 a      +      +      +      +     2+      +      +      + 
  2.960e-08  0.00e+00 a      +      +      +      +     2+      +      +      + 
  2.980e-08  0.00e+00 a      +      +      +      +     2+      +      +      + 
  3.000e-08  6.00e-01-+------+------+--a---c-b----+------+------+------+------+-
  3.020e-08  6.00e-01 +      +      +  2 b +      +      +      +      +      + 
  3.040e-08  6.00e-01 +      +      +  2 b +      +      +      +      +      + 
  3.060e-08  6.00e-01 +      +      +  2 b +      +      +      +      +      + 
  3.080e-08  6.00e-01 +      +      +  2 b +      +      +      +      +      + 
  3.100e-08  6.00e-01 +      +      +  2 b +      +      +      +      +      + 
  3.120e-08  6.00e-01 +      +      +  2 b +      +      +      +      +      + 
  3.140e-08  6.00e-01 +      +      +  2 b +      +      +      +      +      + 
  3.160e-08  6.00e-01 +      +      +  2 b +      +      +      +      +      + 
  3.180e-08  6.00e-01 +      +      +  2 b +      +      +      +      +      + 
  3.200e-08  6.00e-01-+------+------+--2-b-+------+------+------+------+------+-
  3.220e-08  6.00e-01 +      +      +  2 b +      +      +      +      +      + 
  3.240e-08  6.00e-01 +      +      +  2 b +      +      +      +      +      + 
  3.260e-08  6.00e-01 +      +      +  2 b +      +      +      +      +      + 
  3.280e-08  6.00e-01 +      +      +  2 b +      +      +      +      +      + 
  3.300e-08  6.00e-01 +      +      +  2 b +      +      +      +      +      + 
  3.320e-08  6.00e-01 +      +      +  2 b +      +      +      +      +      + 
  3.340e-08  6.00e-01 +      +      +  2 b +      +      +      +      +      + 
  3.360e-08  6.00e-01 +      +      +  2 b +      +      +      +      +      + 
  3.380e-08  6.00e-01 +      +      +  2 b +      +      +      +      +      + 
  3.400e-08  6.00e-01-+------+------+--2-b-+------+------+------+------+------+-
  3.420e-08  6.00e-01 +      +      +  2 b +      +      +      +      +      + 
  3.440e-08  6.00e-01 +      +      +  2 b +      +      +      +      +      + 
  3.460e-08  6.00e-01 +      +      +  2 b +      +      +      +      +      + 
  3.480e-08  6.00e-01 +      +      +  2 b +      +      +      +      +      + 
  3.500e-08  6.00e-01 +      +      +  2 b +      +      +      +      +      + 
  3.520e-08  6.00e-01 +      +      +  2 b +      +      +      +      +      + 
  3.540e-08  6.00e-01 +      +      +  2 b +      +      +      +      +      + 
  3.560e-08  6.00e-01 +      +      +  2 b +      +      +      +      +      + 
  3.580e-08  6.00e-01 +      +      +  2 b +      +      +      +      +      + 
  3.600e-08  6.00e-01-+------+------+--2-b-+------+------+------+------+------+-
  3.620e-08  6.00e-01 +      +      +  2 b +      +      +      +      +      + 
  3.640e-08  6.00e-01 +      +      +  2 b +      +      +      +      +      + 
  3.660e-08  6.00e-01 +      +      +  2 b +      +      +      +      +      + 
  3.680e-08  6.00e-01 +      +      +  2 b +      +      +      +      +      + 
  3.700e-08  6.00e-01 +      +      +  2 b +      +      +      +      +      + 
  3.720e-08  6.00e-01 +      +      +  2 b +      +      +      +      +      + 
  3.740e-08  6.00e-01 +      +      +  2 b +      +      +      +      +      + 
  3.760e-08  6.00e-01 +      +      +  2 b +      +      +      +      +      + 
  3.780e-08  6.00e-01 +      +      +  2 b +      +      +      +      +      + 
  3.800e-08  6.00e-01-+------+------+--2-b-+------+------+------+------+------+-
  3.820e-08  6.00e-01 +      +      +  2 b +      +      +      +      +      + 
  3.840e-08  6.00e-01 +      +      +  2 b +      +      +      +      +      + 
  3.860e-08  6.00e-01 +      +      +  2 b +      +      +      +      +      + 
  3.880e-08  6.00e-01 +      +      +  2 b +      +      +      +      +      + 
  3.900e-08  6.00e-01 +      +      +  2 b +      +      +      +      +      + 
  3.920e-08  6.00e-01 +      +      +  2 b +      +      +      +      +      + 
  3.940e-08  6.00e-01 +      +      +  2 b +      +      +      +      +      + 
  3.960e-08  6.00e-01 +      +      +  2 b +      +      +      +      +      + 
  3.980e-08  6.00e-01 +      +      +  2 b +      +      +      +      +      + 
  4.000e-08  6.00e-01-+------+------+--2-b-+------+------+------+------+------+-
  4.020e-08  6.00e-01 +      +      +  2 b +      +      +      +      +      + 
  4.040e-08  6.00e-01 +      +      +  2 b +      +      +      +      +      + 
  4.060e-08  6.00e-01 +      +      +  2 b +      +      +      +      +      + 
  4.080e-08  6.00e-01 +      +      +  2 b +      +      +      +      +      + 
  4.100e-08  6.00e-01 +      +      +  2 b +      +      +      +      +      + 
