 ****** HSPICE -- J-2014.09-SP2-2 64-BIT (Apr 17 2015) win64 ******             
  Copyright (C) 2014 Synopsys, Inc. All Rights Reserved.                        
  Unpublished-rights reserved under US copyright laws.
  This program is protected by law and is subject to the
  terms and conditions of the license agreement from Synopsys.
  Use of this program is your acceptance to be bound by the
  license agreement. HSPICE is the trademark of Synopsys, Inc.
  Input File: nti.sp                                                            
  Command line options: -i nti.sp -o nti.lis
  lic:  
  lic: FLEXlm: v10.9.8 
  lic: USER:   DELL                 HOSTNAME: DESKTOP-7ITPLTQ 
  lic: HOSTID: "c03eba3298b7 18473d25e973 1a473d25e973 2a473d25e973" PID:      1
 6156 
  lic: Using FLEXlm license file: 
  lic: 27000@DESKTOP-7ITPLTQ 
  lic: Checkout 1 hspice 
  lic: License/Maintenance for hspice will expire on 30-dec-2030/2020.12 
  lic: 1(in_use)/99(total) FLOATING license(s) on SERVER 27000@DESKTOP-7ITPLTQ 
  lic:   
 Init: read install configuration file: C:\synopsys\Hspice_J-2014.09-SP2-2\meta.cfg
1****** HSPICE -- J-2014.09-SP2-2 64-BIT (Apr 17 2015) win64 ******             
 ******  
 nti gate

 ****** circuit name directory
 circuit number to circuit name directory
   number circuitname                     definition         multiplier
        0 main circuit
  **info** (nti.sp:19) DC voltage reset to initial transient source value              in source        0:vina                new dc=  0.0000D+00
  
      
  **warning** PIVOT option setting is simplified, pivot = 13 is obsolete,
              automatically switch to pivot = 1.
 *****************************************************************
 ******  option summary
 ******
 runlvl  = 3         bypass  = 2         
  Opening plot unit= 79
 file=nti.pa0

1****** HSPICE -- J-2014.09-SP2-2 64-BIT (Apr 17 2015) win64 ******             
 ******  
 nti gate

 ****** operating point information tnom=  25.000 temp=  25.000 ******
 ****** operating point status is all       simulation time is   0.000e+00
    node    =voltage      node    =voltage      node    =voltage

 +0:a       = 0.000e+00 0:op      = 9.000e-01


 **** voltage sources

 subckt                        
 element  0:vds      0:vina    
  volts    9.000e-01  0.000e+00
  current -7.855e-09  0.000e+00
  power    7.069e-09  0.000e+00

     total voltage source power dissipation=  7.069e-09       watts


 ******  
 nti gate

 ****** transient analysis tnom=  25.000 temp=  25.000 ******
 avgpower= 2.5406e-07  from= 1.0000e-09     to= 9.0000e-08
 peakpower= 3.1205e-05    at= 2.9942e-08
             from= 1.0000e-09    to= 9.0000e-08

a


 legend:

  a: v(a)
  b: v(op)

      time       v(a)
 (ab      )    -5.000e-01     0.000e+00     5.000e-01     1.000e-00    1.500e+00
                      +             +             +             +             + 
  0.000e+00  0.00e+00-+------+------a------+------+------+---b--+------+------+-
  2.000e-10  0.00e+00 +      +      a      +      +      +   b  +      +      + 
  4.000e-10  0.00e+00 +      +      a      +      +      +   b  +      +      + 
  6.000e-10  0.00e+00 +      +      a      +      +      +   b  +      +      + 
  8.000e-10  0.00e+00 +      +      a      +      +      +   b  +      +      + 
  1.000e-09  0.00e+00 +      +      a      +      +      +   b  +      +      + 
  1.200e-09  0.00e+00 +      +      a      +      +      +   b  +      +      + 
  1.400e-09  0.00e+00 +      +      a      +      +      +   b  +      +      + 
  1.600e-09  0.00e+00 +      +      a      +      +      +   b  +      +      + 
  1.800e-09  0.00e+00 +      +      a      +      +      +   b  +      +      + 
  2.000e-09  0.00e+00-+------+------a------+------+------+---b--+------+------+-
  2.200e-09  0.00e+00 +      +      a      +      +      +   b  +      +      + 
  2.400e-09  0.00e+00 +      +      a      +      +      +   b  +      +      + 
  2.600e-09  0.00e+00 +      +      a      +      +      +   b  +      +      + 
  2.800e-09  0.00e+00 +      +      a      +      +      +   b  +      +      + 
  3.000e-09  0.00e+00 +      +      a      +      +      +   b  +      +      + 
  3.200e-09  0.00e+00 +      +      a      +      +      +   b  +      +      + 
  3.400e-09  0.00e+00 +      +      a      +      +      +   b  +      +      + 
  3.600e-09  0.00e+00 +      +      a      +      +      +   b  +      +      + 
  3.800e-09  0.00e+00 +      +      a      +      +      +   b  +      +      + 
  4.000e-09  0.00e+00-+------+------a------+------+------+---b--+------+------+-
  4.200e-09  0.00e+00 +      +      a      +      +      +   b  +      +      + 
  4.400e-09  0.00e+00 +      +      a      +      +      +   b  +      +      + 
  4.600e-09  0.00e+00 +      +      a      +      +      +   b  +      +      + 
  4.800e-09  0.00e+00 +      +      a      +      +      +   b  +      +      + 
  5.000e-09  0.00e+00 +      +      a      +      +      +   b  +      +      + 
  5.200e-09  0.00e+00 +      +      a      +      +      +   b  +      +      + 
  5.400e-09  0.00e+00 +      +      a      +      +      +   b  +      +      + 
  5.600e-09  0.00e+00 +      +      a      +      +      +   b  +      +      + 
  5.800e-09  0.00e+00 +      +      a      +      +      +   b  +      +      + 
  6.000e-09  0.00e+00-+------+------a------+------+------+---b--+------+------+-
  6.200e-09  0.00e+00 +      +      a      +      +      +   b  +      +      + 
  6.400e-09  0.00e+00 +      +      a      +      +      +   b  +      +      + 
  6.600e-09  0.00e+00 +      +      a      +      +      +   b  +      +      + 
  6.800e-09  0.00e+00 +      +      a      +      +      +   b  +      +      + 
  7.000e-09  0.00e+00 +      +      a      +      +      +   b  +      +      + 
  7.200e-09  0.00e+00 +      +      a      +      +      +   b  +      +      + 
  7.400e-09  0.00e+00 +      +      a      +      +      +   b  +      +      + 
  7.600e-09  0.00e+00 +      +      a      +      +      +   b  +      +      + 
  7.800e-09  0.00e+00 +      +      a      +      +      +   b  +      +      + 
  8.000e-09  0.00e+00-+------+------a------+------+------+---b--+------+------+-
  8.200e-09  0.00e+00 +      +      a      +      +      +   b  +      +      + 
  8.400e-09  0.00e+00 +      +      a      +      +      +   b  +      +      + 
  8.600e-09  0.00e+00 +      +      a      +      +      +   b  +      +      + 
  8.800e-09  0.00e+00 +      +      a      +      +      +   b  +      +      + 
  9.000e-09  0.00e+00 +      +      a      +      +      +   b  +      +      + 
  9.200e-09  0.00e+00 +      +      a      +      +      +   b  +      +      + 
  9.400e-09  0.00e+00 +      +      a      +      +      +   b  +      +      + 
  9.600e-09  0.00e+00 +      +      a      +      +      +   b  +      +      + 
  9.800e-09  0.00e+00 +      +      a      +      +      +   b  +      +      + 
  1.000e-08  0.00e+00-+------+------a------+------+------+---b--+------+------+-
  1.020e-08  0.00e+00 +      +      a      +      +      +   b  +      +      + 
  1.040e-08  0.00e+00 +      +      a      +      +      +   b  +      +      + 
  1.060e-08  0.00e+00 +      +      a      +      +      +   b  +      +      + 
  1.080e-08  0.00e+00 +      +      a      +      +      +   b  +      +      + 
  1.100e-08  0.00e+00 +      +      a      +      +      +   b  +      +      + 
  1.120e-08  0.00e+00 +      +      a      +      +      +   b  +      +      + 
  1.140e-08  0.00e+00 +      +      a      +      +      +   b  +      +      + 
  1.160e-08  0.00e+00 +      +      a      +      +      +   b  +      +      + 
  1.180e-08  0.00e+00 +      +      a      +      +      +   b  +      +      + 
  1.200e-08  0.00e+00-+------+------a------+------+------+---b--+------+------+-
  1.220e-08  0.00e+00 +      +      a      +      +      +   b  +      +      + 
  1.240e-08  0.00e+00 +      +      a      +      +      +   b  +      +      + 
  1.260e-08  0.00e+00 +      +      a      +      +      +   b  +      +      + 
  1.280e-08  0.00e+00 +      +      a      +      +      +   b  +      +      + 
  1.300e-08  0.00e+00 +      +      a      +      +      +   b  +      +      + 
  1.320e-08  0.00e+00 +      +      a      +      +      +   b  +      +      + 
  1.340e-08  0.00e+00 +      +      a      +      +      +   b  +      +      + 
  1.360e-08  0.00e+00 +      +      a      +      +      +   b  +      +      + 
  1.380e-08  0.00e+00 +      +      a      +      +      +   b  +      +      + 
  1.400e-08  0.00e+00-+------+------a------+------+------+---b--+------+------+-
  1.420e-08  0.00e+00 +      +      a      +      +      +   b  +      +      + 
  1.440e-08  0.00e+00 +      +      a      +      +      +   b  +      +      + 
  1.460e-08  0.00e+00 +      +      a      +      +      +   b  +      +      + 
  1.480e-08  0.00e+00 +      +      a      +      +      +   b  +      +      + 
  1.500e-08  0.00e+00 +      +      a      +      +      +   b  +      +      + 
  1.520e-08  0.00e+00 +      +      a      +      +      +   b  +      +      + 
  1.540e-08  0.00e+00 +      +      a      +      +      +   b  +      +      + 
  1.560e-08  0.00e+00 +      +      a      +      +      +   b  +      +      + 
  1.580e-08  0.00e+00 +      +      a      +      +      +   b  +      +      + 
  1.600e-08  0.00e+00-+------+------a------+------+------+---b--+------+------+-
  1.620e-08  0.00e+00 +      +      a      +      +      +   b  +      +      + 
  1.640e-08  0.00e+00 +      +      a      +      +      +   b  +      +      + 
  1.660e-08  0.00e+00 +      +      a      +      +      +   b  +      +      + 
  1.680e-08  0.00e+00 +      +      a      +      +      +   b  +      +      + 
  1.700e-08  0.00e+00 +      +      a      +      +      +   b  +      +      + 
  1.720e-08  0.00e+00 +      +      a      +      +      +   b  +      +      + 
  1.740e-08  0.00e+00 +      +      a      +      +      +   b  +      +      + 
  1.760e-08  0.00e+00 +      +      a      +      +      +   b  +      +      + 
  1.780e-08  0.00e+00 +      +      a      +      +      +   b  +      +      + 
  1.800e-08  0.00e+00-+------+------a------+------+------+---b--+------+------+-
  1.820e-08  0.00e+00 +      +      a      +      +      +   b  +      +      + 
  1.840e-08  0.00e+00 +      +      a      +      +      +   b  +      +      + 
  1.860e-08  0.00e+00 +      +      a      +      +      +   b  +      +      + 
  1.880e-08  0.00e+00 +      +      a      +      +      +   b  +      +      + 
  1.900e-08  0.00e+00 +      +      a      +      +      +   b  +      +      + 
  1.920e-08  0.00e+00 +      +      a      +      +      +   b  +      +      + 
  1.940e-08  0.00e+00 +      +      a      +      +      +   b  +      +      + 
  1.960e-08  0.00e+00 +      +      a      +      +      +   b  +      +      + 
  1.980e-08  0.00e+00 +      +      a      +      +      +   b  +      +      + 
  2.000e-08  0.00e+00-+------+------a------+------+------+---b--+------+------+-
  2.020e-08  0.00e+00 +      +      a      +      +      +   b  +      +      + 
  2.040e-08  0.00e+00 +      +      a      +      +      +   b  +      +      + 
  2.060e-08  0.00e+00 +      +      a      +      +      +   b  +      +      + 
  2.080e-08  0.00e+00 +      +      a      +      +      +   b  +      +      + 
  2.100e-08  0.00e+00 +      +      a      +      +      +   b  +      +      + 
  2.120e-08  0.00e+00 +      +      a      +      +      +   b  +      +      + 
  2.140e-08  0.00e+00 +      +      a      +      +      +   b  +      +      + 
  2.160e-08  0.00e+00 +      +      a      +      +      +   b  +      +      + 
  2.180e-08  0.00e+00 +      +      a      +      +      +   b  +      +      + 
  2.200e-08  0.00e+00-+------+------a------+------+------+---b--+------+------+-
  2.220e-08  0.00e+00 +      +      a      +      +      +   b  +      +      + 
  2.240e-08  0.00e+00 +      +      a      +      +      +   b  +      +      + 
  2.260e-08  0.00e+00 +      +      a      +      +      +   b  +      +      + 
  2.280e-08  0.00e+00 +      +      a      +      +      +   b  +      +      + 
  2.300e-08  0.00e+00 +      +      a      +      +      +   b  +      +      + 
  2.320e-08  0.00e+00 +      +      a      +      +      +   b  +      +      + 
  2.340e-08  0.00e+00 +      +      a      +      +      +   b  +      +      + 
  2.360e-08  0.00e+00 +      +      a      +      +      +   b  +      +      + 
  2.380e-08  0.00e+00 +      +      a      +      +      +   b  +      +      + 
  2.400e-08  0.00e+00-+------+------a------+------+------+---b--+------+------+-
  2.420e-08  0.00e+00 +      +      a      +      +      +   b  +      +      + 
  2.440e-08  0.00e+00 +      +      a      +      +      +   b  +      +      + 
  2.460e-08  0.00e+00 +      +      a      +      +      +   b  +      +      + 
  2.480e-08  0.00e+00 +      +      a      +      +      +   b  +      +      + 
  2.500e-08  0.00e+00 +      +      a      +      +      +   b  +      +      + 
  2.520e-08  0.00e+00 +      +      a      +      +      +   b  +      +      + 
  2.540e-08  0.00e+00 +      +      a      +      +      +   b  +      +      + 
  2.560e-08  0.00e+00 +      +      a      +      +      +   b  +      +      + 
  2.580e-08  0.00e+00 +      +      a      +      +      +   b  +      +      + 
  2.600e-08  0.00e+00-+------+------a------+------+------+---b--+------+------+-
  2.620e-08  0.00e+00 +      +      a      +      +      +   b  +      +      + 
  2.640e-08  0.00e+00 +      +      a      +      +      +   b  +      +      + 
  2.660e-08  0.00e+00 +      +      a      +      +      +   b  +      +      + 
  2.680e-08  0.00e+00 +      +      a      +      +      +   b  +      +      + 
  2.700e-08  0.00e+00 +      +      a      +      +      +   b  +      +      + 
  2.720e-08  0.00e+00 +      +      a      +      +      +   b  +      +      + 
  2.740e-08  0.00e+00 +      +      a      +      +      +   b  +      +      + 
  2.760e-08  0.00e+00 +      +      a      +      +      +   b  +      +      + 
  2.780e-08  0.00e+00 +      +      a      +      +      +   b  +      +      + 
  2.800e-08  0.00e+00-+------+------a------+------+------+---b--+------+------+-
  2.820e-08  0.00e+00 +      +      a      +      +      +   b  +      +      + 
  2.840e-08  0.00e+00 +      +      a      +      +      +   b  +      +      + 
  2.860e-08  0.00e+00 +      +      a      +      +      +   b  +      +      + 
  2.880e-08  0.00e+00 +      +      a      +      +      +   b  +      +      + 
  2.900e-08  0.00e+00 +      +      a      +      +      +   b  +      +      + 
  2.920e-08  0.00e+00 +      +      a      +      +      +   b  +      +      + 
  2.940e-08  0.00e+00 +      +      a      +      +      +   b  +      +      + 
  2.960e-08  0.00e+00 +      +      a      +      +      +   b  +      +      + 
  2.980e-08  0.00e+00 +      +      a      +      +      +   b  +      +      + 
  3.000e-08  4.50e-01-+------+------b------+-----a+------+------+------+------+-
  3.020e-08  4.50e-01 +      +      b      +     a+      +      +      +      + 
  3.040e-08  4.50e-01 +      +      b      +     a+      +      +      +      + 
  3.060e-08  4.50e-01 +      +      b      +     a+      +      +      +      + 
  3.080e-08  4.50e-01 +      +      b      +     a+      +      +      +      + 
  3.100e-08  4.50e-01 +      +      b      +     a+      +      +      +      + 
  3.120e-08  4.50e-01 +      +      b      +     a+      +      +      +      + 
  3.140e-08  4.50e-01 +      +      b      +     a+      +      +      +      + 
  3.160e-08  4.50e-01 +      +      b      +     a+      +      +      +      + 
  3.180e-08  4.50e-01 +      +      b      +     a+      +      +      +      + 
  3.200e-08  4.50e-01-+------+------b------+-----a+------+------+------+------+-
  3.220e-08  4.50e-01 +      +      b      +     a+      +      +      +      + 
  3.240e-08  4.50e-01 +      +      b      +     a+      +      +      +      + 
  3.260e-08  4.50e-01 +      +      b      +     a+      +      +      +      + 
  3.280e-08  4.50e-01 +      +      b      +     a+      +      +      +      + 
  3.300e-08  4.50e-01 +      +      b      +     a+      +      +      +      + 
  3.320e-08  4.50e-01 +      +      b      +     a+      +      +      +      + 
  3.340e-08  4.50e-01 +      +      b      +     a+      +      +      +      + 
  3.360e-08  4.50e-01 +      +      b      +     a+      +      +      +      + 
  3.380e-08  4.50e-01 +      +      b      +     a+      +      +      +      + 
  3.400e-08  4.50e-01-+------+------b------+-----a+------+------+------+------+-
  3.420e-08  4.50e-01 +      +      b      +     a+      +      +      +      + 
  3.440e-08  4.50e-01 +      +      b      +     a+      +      +      +      + 
  3.460e-08  4.50e-01 +      +      b      +     a+      +      +      +      + 
  3.480e-08  4.50e-01 +      +      b      +     a+      +      +      +      + 
  3.500e-08  4.50e-01 +      +      b      +     a+      +      +      +      + 
  3.520e-08  4.50e-01 +      +      b      +     a+      +      +      +      + 
  3.540e-08  4.50e-01 +      +      b      +     a+      +      +      +      + 
  3.560e-08  4.50e-01 +      +      b      +     a+      +      +      +      + 
  3.580e-08  4.50e-01 +      +      b      +     a+      +      +      +      + 
  3.600e-08  4.50e-01-+------+------b------+-----a+------+------+------+------+-
  3.620e-08  4.50e-01 +      +      b      +     a+      +      +      +      + 
  3.640e-08  4.50e-01 +      +      b      +     a+      +      +      +      + 
  3.660e-08  4.50e-01 +      +      b      +     a+      +      +      +      + 
  3.680e-08  4.50e-01 +      +      b      +     a+      +      +      +      + 
  3.700e-08  4.50e-01 +      +      b      +     a+      +      +      +      + 
  3.720e-08  4.50e-01 +      +      b      +     a+      +      +      +      + 
  3.740e-08  4.50e-01 +      +      b      +     a+      +      +      +      + 
  3.760e-08  4.50e-01 +      +      b      +     a+      +      +      +      + 
  3.780e-08  4.50e-01 +      +      b      +     a+      +      +      +      + 
  3.800e-08  4.50e-01-+------+------b------+-----a+------+------+------+------+-
  3.820e-08  4.50e-01 +      +      b      +     a+      +      +      +      + 
  3.840e-08  4.50e-01 +      +      b      +     a+      +      +      +      + 
  3.860e-08  4.50e-01 +      +      b      +     a+      +      +      +      + 
  3.880e-08  4.50e-01 +      +      b      +     a+      +      +      +      + 
  3.900e-08  4.50e-01 +      +      b      +     a+      +      +      +      + 
  3.920e-08  4.50e-01 +      +      b      +     a+      +      +      +      + 
  3.940e-08  4.50e-01 +      +      b      +     a+      +      +      +      + 
  3.960e-08  4.50e-01 +      +      b      +     a+      +      +      +      + 
  3.980e-08  4.50e-01 +      +      b      +     a+      +      +      +      + 
  4.000e-08  4.50e-01-+------+------b------+-----a+------+------+------+------+-
  4.020e-08  4.50e-01 +      +      b      +     a+      +      +      +      + 
  4.040e-08  4.50e-01 +      +      b      +     a+      +      +      +      + 
  4.060e-08  4.50e-01 +      +      b      +     a+      +      +      +      + 
  4.080e-08  4.50e-01 +      +      b      +     a+      +      +      +      + 
  4.100e-08  4.50e-01 +      +      b      +     a+      +      +      +      + 
  4.120e-08  4.50e-01 +      +      b      +     a+      +      +      +      + 
